time	V(Vout1,Vout2)	V(vin1)	V(vin2)	V(vout1)	V(vout2)
0.000000000000000e+000	0.000000e+000	0.000000e+000	1.224647e-016	1.014333e+001	1.014333e+001
2.285714279943413e-006	-1.557617e-001	1.436158e-003	-7.180789e-004	1.006539e+001	1.022115e+001
4.571428559886826e-006	-3.086897e-001	2.872313e-003	-1.436157e-003	9.988853e+000	1.029754e+001
6.857142839830239e-006	-4.587838e-001	4.308466e-003	-2.154233e-003	9.913724e+000	1.037251e+001
9.142857119773651e-006	-6.060442e-001	5.744617e-003	-2.872308e-003	9.840004e+000	1.044605e+001
1.142857139971706e-005	-7.504708e-001	7.180765e-003	-3.590382e-003	9.767692e+000	1.051816e+001
1.371428567966048e-005	-8.920637e-001	8.616911e-003	-4.308455e-003	9.696788e+000	1.058885e+001
1.599999995960388e-005	-1.030823e+000	1.005305e-002	-5.026527e-003	9.627293e+000	1.065812e+001
3.199999991920777e-005	-1.836741e+000	2.010585e-002	-1.005293e-002	9.223336e+000	1.106008e+001
6.399999983841553e-005	-2.792182e+000	4.020968e-002	-2.010484e-002	8.742990e+000	1.153517e+001
1.279999996768311e-004	-3.499850e+000	8.040310e-002	-4.020155e-002	8.382994e+000	1.188284e+001
2.256562496768311e-004	-3.735565e+000	1.416653e-001	-7.083264e-002	8.255190e+000	1.199076e+001
3.233124996768311e-004	-3.773636e+000	2.027941e-001	-1.013971e-001	8.226095e+000	1.199973e+001
4.209687496768311e-004	-3.794233e+000	2.637321e-001	-1.318661e-001	8.205759e+000	1.199999e+001
6.162812496768311e-004	-3.834109e+000	3.848063e-001	-1.924032e-001	8.165891e+000	1.200000e+001
9.092499996768310e-004	-3.892961e+000	5.635610e-001	-2.817805e-001	8.107039e+000	1.200000e+001
1.104562499676831e-003	-3.931354e+000	6.801724e-001	-3.400862e-001	8.068646e+000	1.200000e+001
1.202218749676831e-003	-3.950243e+000	7.375451e-001	-3.687726e-001	8.049757e+000	1.200000e+001
1.299874999676831e-003	-3.968904e+000	7.942237e-001	-3.971119e-001	8.031096e+000	1.200000e+001
1.397531249676831e-003	-3.987319e+000	8.501548e-001	-4.250774e-001	8.012681e+000	1.200000e+001
1.495187499676831e-003	-4.005471e+000	9.052858e-001	-4.526429e-001	7.994529e+000	1.200000e+001
1.690499999676832e-003	-4.040917e+000	1.012941e+000	-5.064703e-001	7.959083e+000	1.200000e+001
1.885812499676832e-003	-4.075109e+000	1.116783e+000	-5.583914e-001	7.924891e+000	1.200000e+001
2.081124999676832e-003	-4.107917e+000	1.216422e+000	-6.082109e-001	7.892083e+000	1.200000e+001
2.374093749676832e-003	-4.154266e+000	1.357183e+000	-6.785917e-001	7.845734e+000	1.200000e+001
2.667062499676833e-003	-4.196833e+000	1.486456e+000	-7.432280e-001	7.803167e+000	1.200000e+001
2.960031249676833e-003	-4.235258e+000	1.603146e+000	-8.015729e-001	7.764742e+000	1.200000e+001
3.252999999676833e-003	-4.269214e+000	1.706264e+000	-8.531322e-001	7.730786e+000	1.200000e+001
3.545968749676833e-003	-4.298415e+000	1.794939e+000	-8.974697e-001	7.701585e+000	1.200000e+001
3.838937499676834e-003	-4.322612e+000	1.868420e+000	-9.342099e-001	7.677388e+000	1.200000e+001
4.131906249676833e-003	-4.341601e+000	1.926084e+000	-9.630419e-001	7.658399e+000	1.200000e+001
4.424874999676831e-003	-4.355221e+000	1.967443e+000	-9.837216e-001	7.644779e+000	1.200000e+001
4.717843749676830e-003	-4.363357e+000	1.992148e+000	-9.960738e-001	7.636643e+000	1.200000e+001
5.010812499676829e-003	-4.365939e+000	1.999988e+000	-9.999942e-001	7.634061e+000	1.200000e+001
5.303781249676828e-003	-4.362946e+000	1.990899e+000	-9.954495e-001	7.637054e+000	1.200000e+001
5.596749999676827e-003	-4.354402e+000	1.964956e+000	-9.824781e-001	7.645598e+000	1.200000e+001
5.889718749676826e-003	-4.340382e+000	1.922380e+000	-9.611898e-001	7.659618e+000	1.200000e+001
6.182687499676825e-003	-4.321002e+000	1.863530e+000	-9.317649e-001	7.678998e+000	1.200000e+001
6.475656249676824e-003	-4.296428e+000	1.788905e+000	-8.944525e-001	7.703572e+000	1.200000e+001
6.768624999676823e-003	-4.266867e+000	1.699137e+000	-8.495683e-001	7.733133e+000	1.200000e+001
7.061593749676822e-003	-4.232571e+000	1.594985e+000	-7.974924e-001	7.767429e+000	1.200000e+001
7.354562499676821e-003	-4.193829e+000	1.477331e+000	-7.386657e-001	7.806171e+000	1.200000e+001
7.647531249676820e-003	-4.150970e+000	1.347172e+000	-6.735860e-001	7.849030e+000	1.200000e+001
7.940499999676819e-003	-4.104356e+000	1.205608e+000	-6.028042e-001	7.895644e+000	1.200000e+001
8.135812499676818e-003	-4.071389e+000	1.105485e+000	-5.527427e-001	7.928611e+000	1.200000e+001
8.331124999676818e-003	-4.037052e+000	1.001201e+000	-5.006007e-001	7.962948e+000	1.200000e+001
8.526437499676817e-003	-4.001475e+000	8.931492e-001	-4.465746e-001	7.998525e+000	1.200000e+001
8.624093749676817e-003	-3.983264e+000	8.378366e-001	-4.189183e-001	8.016736e+000	1.200000e+001
8.721749999676816e-003	-3.964792e+000	7.817354e-001	-3.908677e-001	8.035208e+000	1.200000e+001
8.819406249676816e-003	-3.946079e+000	7.248985e-001	-3.624492e-001	8.053921e+000	1.200000e+001
8.917062499676816e-003	-3.927141e+000	6.673793e-001	-3.336896e-001	8.072859e+000	1.200000e+001
9.112374999676815e-003	-3.888664e+000	5.505113e-001	-2.752557e-001	8.111336e+000	1.200000e+001
9.502999999676813e-003	-3.809813e+000	3.110071e-001	-1.555035e-001	8.190187e+000	1.200000e+001
9.600656249676813e-003	-3.789780e+000	2.502574e-001	-1.251287e-001	8.210203e+000	1.199998e+001
9.698312499676813e-003	-3.768559e+000	1.892722e-001	-9.463609e-002	8.230851e+000	1.199941e+001
9.795968749676812e-003	-3.709486e+000	1.281088e-001	-6.405442e-002	8.270433e+000	1.197992e+001
9.893624999676812e-003	-2.871541e+000	6.682494e-002	-3.341247e-002	8.698896e+000	1.157044e+001
9.991281249676812e-003	-3.278103e-001	5.478146e-003	-2.739073e-003	9.976826e+000	1.030464e+001
1.008893749967681e-002	2.501740e+000	-5.587381e-002	2.793690e-002	1.139158e+001	8.889842e+000
1.018659374967681e-002	3.652533e+000	-1.171732e-001	5.858659e-002	1.196288e+001	8.310345e+000
1.028424999967681e-002	3.734581e+000	-1.783623e-001	8.918113e-002	1.199890e+001	8.264317e+000
1.038190624967681e-002	3.746765e+000	-2.393835e-001	1.196917e-001	1.199997e+001	8.253202e+000
1.047956249967681e-002	3.756835e+000	-3.001794e-001	1.500897e-001	1.200000e+001	8.243164e+000
1.066092410681967e-002	3.775434e+000	-4.131676e-001	2.065838e-001	1.200000e+001	8.224565e+000
1.084228571396252e-002	3.793669e+000	-5.239375e-001	2.619688e-001	1.200000e+001	8.206331e+000
1.102364732110538e-002	3.811538e+000	-6.324891e-001	3.162445e-001	1.200000e+001	8.188462e+000
1.120500892824824e-002	3.829042e+000	-7.388222e-001	3.694111e-001	1.200000e+001	8.170958e+000
1.138637053539109e-002	3.846180e+000	-8.429370e-001	4.214685e-001	1.200000e+001	8.153820e+000
1.156773214253395e-002	3.862954e+000	-9.448335e-001	4.724167e-001	1.200000e+001	8.137046e+000
1.174909374967681e-002	3.879362e+000	-1.044512e+000	5.222558e-001	1.200000e+001	8.120638e+000
1.194440624967681e-002	3.896255e+000	-1.147133e+000	5.735666e-001	1.200000e+001	8.103745e+000
1.213971874967680e-002	3.912437e+000	-1.245437e+000	6.227186e-001	1.200000e+001	8.087563e+000
1.233503124967680e-002	3.927849e+000	-1.339054e+000	6.695269e-001	1.200000e+001	8.072151e+000
1.243268749967680e-002	3.935246e+000	-1.383993e+000	6.919967e-001	1.200000e+001	8.064754e+000
1.253034374967680e-002	3.942430e+000	-1.427630e+000	7.138152e-001	1.200000e+001	8.057570e+000
1.262799999967680e-002	3.949392e+000	-1.469924e+000	7.349619e-001	1.200000e+001	8.050608e+000
1.272565624967680e-002	3.956127e+000	-1.510834e+000	7.554169e-001	1.200000e+001	8.043873e+000
1.282331249967680e-002	3.962627e+000	-1.550322e+000	7.751609e-001	1.200000e+001	8.037373e+000
1.292096874967680e-002	3.968887e+000	-1.588351e+000	7.941754e-001	1.200000e+001	8.031113e+000
1.301862499967680e-002	3.974902e+000	-1.624885e+000	8.124424e-001	1.200000e+001	8.025098e+000
1.311628124967680e-002	3.980665e+000	-1.659889e+000	8.299447e-001	1.200000e+001	8.019335e+000
1.321393749967680e-002	3.986171e+000	-1.693332e+000	8.466660e-001	1.200000e+001	8.013829e+000
1.331159374967680e-002	3.991414e+000	-1.725181e+000	8.625904e-001	1.200000e+001	8.008586e+000
1.340924999967680e-002	3.996389e+000	-1.755406e+000	8.777030e-001	1.200000e+001	8.003611e+000
1.350690624967680e-002	4.001093e+000	-1.783979e+000	8.919894e-001	1.200000e+001	7.998907e+000
1.360456249967680e-002	4.005521e+000	-1.810873e+000	9.054364e-001	1.200000e+001	7.994479e+000
1.370221874967680e-002	4.009668e+000	-1.836062e+000	9.180312e-001	1.200000e+001	7.990332e+000
1.379987499967680e-002	4.013530e+000	-1.859524e+000	9.297620e-001	1.200000e+001	7.986470e+000
1.389753124967680e-002	4.017104e+000	-1.881235e+000	9.406177e-001	1.200000e+001	7.982896e+000
1.409284374967680e-002	4.023376e+000	-1.919328e+000	9.596640e-001	1.200000e+001	7.976624e+000
1.428815624967680e-002	4.028458e+000	-1.950197e+000	9.750983e-001	1.200000e+001	7.971542e+000
1.448346874967680e-002	4.032331e+000	-1.973725e+000	9.868626e-001	1.200000e+001	7.967669e+000
1.467878124967680e-002	4.034981e+000	-1.989825e+000	9.949125e-001	1.200000e+001	7.965019e+000
1.487409374967679e-002	4.036399e+000	-1.998436e+000	9.992178e-001	1.200000e+001	7.963601e+000
1.506940624967679e-002	4.036578e+000	-1.999525e+000	9.997623e-001	1.200000e+001	7.963422e+000
1.526471874967679e-002	4.035519e+000	-1.993088e+000	9.965439e-001	1.200000e+001	7.964481e+000
1.546003124967679e-002	4.033224e+000	-1.979149e+000	9.895747e-001	1.200000e+001	7.966776e+000
1.565534374967679e-002	4.029703e+000	-1.957762e+000	9.788810e-001	1.200000e+001	7.970297e+000
1.585065624967679e-002	4.024969e+000	-1.929006e+000	9.645030e-001	1.200000e+001	7.975031e+000
1.604596874967680e-002	4.019040e+000	-1.892990e+000	9.464948e-001	1.200000e+001	7.980960e+000
1.614362499967680e-002	4.015634e+000	-1.872300e+000	9.361501e-001	1.200000e+001	7.984366e+000
1.624128124967680e-002	4.011937e+000	-1.849849e+000	9.249243e-001	1.200000e+001	7.988063e+000
1.633893749967680e-002	4.007955e+000	-1.825656e+000	9.128280e-001	1.200000e+001	7.992045e+000
1.643659374967680e-002	4.003689e+000	-1.799745e+000	8.998725e-001	1.200000e+001	7.996311e+000
1.653424999967680e-002	3.999145e+000	-1.772140e+000	8.860701e-001	1.200000e+001	8.000855e+000
1.663190624967681e-002	3.994326e+000	-1.742868e+000	8.714338e-001	1.200000e+001	8.005674e+000
1.672956249967681e-002	3.989237e+000	-1.711955e+000	8.559774e-001	1.200000e+001	8.010763e+000
1.682721874967681e-002	3.983882e+000	-1.679430e+000	8.397152e-001	1.200000e+001	8.016118e+000
1.692487499967681e-002	3.978268e+000	-1.645326e+000	8.226628e-001	1.200000e+001	8.021732e+000
1.702253124967681e-002	3.972399e+000	-1.609672e+000	8.048362e-001	1.200000e+001	8.027601e+000
1.712018749967681e-002	3.966279e+000	-1.572504e+000	7.862520e-001	1.200000e+001	8.033721e+000
1.721784374967681e-002	3.959917e+000	-1.533856e+000	7.669279e-001	1.200000e+001	8.040083e+000
1.731549999967682e-002	3.953317e+000	-1.493764e+000	7.468820e-001	1.200000e+001	8.046683e+000
1.741315624967682e-002	3.946486e+000	-1.452266e+000	7.261330e-001	1.200000e+001	8.053514e+000
1.751081249967682e-002	3.939429e+000	-1.409402e+000	7.047008e-001	1.200000e+001	8.060571e+000
1.760846874967682e-002	3.932154e+000	-1.365211e+000	6.826053e-001	1.200000e+001	8.067846e+000
1.770612499967682e-002	3.924667e+000	-1.319735e+000	6.598673e-001	1.200000e+001	8.075333e+000
1.790143749967682e-002	3.909089e+000	-1.225100e+000	6.125501e-001	1.200000e+001	8.090911e+000
1.809674999967683e-002	3.892752e+000	-1.125855e+000	5.629275e-001	1.200000e+001	8.107248e+000
1.838971874967683e-002	3.866959e+000	-9.691632e-001	4.845816e-001	1.200000e+001	8.133041e+000
1.855712946396255e-002	3.851487e+000	-8.751705e-001	4.375853e-001	1.200000e+001	8.148514e+000
1.872454017824827e-002	3.835727e+000	-7.794338e-001	3.897169e-001	1.200000e+001	8.164273e+000
1.889195089253398e-002	3.819681e+000	-6.819529e-001	3.409765e-001	1.200000e+001	8.180320e+000
1.905936160681970e-002	3.803346e+000	-5.827280e-001	2.913640e-001	1.200000e+001	8.196654e+000
1.922677232110541e-002	3.786724e+000	-4.817590e-001	2.408795e-001	1.200000e+001	8.213275e+000
1.939418303539113e-002	3.769814e+000	-3.790459e-001	1.895229e-001	1.200000e+001	8.230184e+000
1.956159374967685e-002	3.752617e+000	-2.745887e-001	1.372944e-001	1.200000e+001	8.247379e+000
1.965924999967685e-002	3.742318e+000	-2.136909e-001	1.068454e-001	1.199986e+001	8.257541e+000
1.975690624967685e-002	3.722747e+000	-1.525919e-001	7.629594e-002	1.199510e+001	8.272349e+000
1.985456249967685e-002	3.427012e+000	-9.134928e-002	4.567464e-002	1.185209e+001	8.425079e+000
1.995221874967685e-002	1.554327e+000	-3.002072e-002	1.501036e-002	1.091854e+001	9.364208e+000
2.004987499967685e-002	-1.614194e+000	3.133610e-002	-1.566805e-002	9.331682e+000	1.094588e+001
2.014753124967686e-002	-3.460866e+000	9.266344e-002	-4.633172e-002	8.400442e+000	1.186131e+001
2.024518749967686e-002	-3.748929e+000	1.539036e-001	-7.695178e-002	8.246505e+000	1.199543e+001
2.034284374967686e-002	-3.777920e+000	2.149988e-001	-1.074994e-001	8.221948e+000	1.199987e+001
2.044049999967686e-002	-3.798244e+000	2.758918e-001	-1.379459e-001	8.201752e+000	1.200000e+001
2.055210714253401e-002	-3.821122e+000	3.453712e-001	-1.726856e-001	8.178876e+000	1.200000e+001
2.066371428539115e-002	-3.843790e+000	4.142169e-001	-2.071084e-001	8.156209e+000	1.200000e+001
2.077532142824829e-002	-3.866249e+000	4.824287e-001	-2.412144e-001	8.133750e+000	1.200000e+001
2.088692857110544e-002	-3.888499e+000	5.500068e-001	-2.750034e-001	8.111501e+000	1.200000e+001
2.099853571396258e-002	-3.910540e+000	6.169510e-001	-3.084755e-001	8.089461e+000	1.200000e+001
2.111014285681973e-002	-3.932371e+000	6.832615e-001	-3.416307e-001	8.067629e+000	1.200000e+001
2.122174999967687e-002	-3.953994e+000	7.489381e-001	-3.744690e-001	8.046006e+000	1.200000e+001
2.131940624967687e-002	-3.972608e+000	8.054714e-001	-4.027357e-001	8.027392e+000	1.200000e+001
2.141706249967687e-002	-3.990972e+000	8.612466e-001	-4.306233e-001	8.009028e+000	1.200000e+001
2.151471874967688e-002	-4.009068e+000	9.162114e-001	-4.581057e-001	7.990932e+000	1.200000e+001
2.171003124967688e-002	-4.044395e+000	1.023503e+000	-5.117514e-001	7.955605e+000	1.200000e+001
2.190534374967688e-002	-4.078454e+000	1.126942e+000	-5.634711e-001	7.921546e+000	1.200000e+001
2.210065624967688e-002	-4.111117e+000	1.226140e+000	-6.130700e-001	7.888883e+000	1.200000e+001
2.239362499967689e-002	-4.157226e+000	1.366172e+000	-6.830858e-001	7.842774e+000	1.200000e+001
2.268659374967689e-002	-4.199527e+000	1.494638e+000	-7.473192e-001	7.800473e+000	1.200000e+001
2.297956249967690e-002	-4.237664e+000	1.610453e+000	-8.052264e-001	7.762336e+000	1.200000e+001
2.327253124967690e-002	-4.271312e+000	1.712634e+000	-8.563172e-001	7.728688e+000	1.200000e+001
2.356549999967690e-002	-4.300186e+000	1.800318e+000	-9.001592e-001	7.699814e+000	1.200000e+001
2.385846874967691e-002	-4.324042e+000	1.872762e+000	-9.363812e-001	7.675958e+000	1.200000e+001
2.415143749967691e-002	-4.342678e+000	1.929353e+000	-9.646765e-001	7.657322e+000	1.200000e+001
2.444440624967692e-002	-4.355935e+000	1.969611e+000	-9.848056e-001	7.644065e+000	1.200000e+001
2.473737499967692e-002	-4.363702e+000	1.993197e+000	-9.965983e-001	7.636298e+000	1.200000e+001
2.503034374967693e-002	-4.365912e+000	1.999909e+000	-9.999546e-001	7.634088e+000	1.200000e+001
2.532331249967693e-002	-4.362548e+000	1.989692e+000	-9.948460e-001	7.637452e+000	1.200000e+001
2.561628124967693e-002	-4.353637e+000	1.962632e+000	-9.813160e-001	7.646363e+000	1.200000e+001
2.590924999967694e-002	-4.339254e+000	1.918958e+000	-9.594789e-001	7.660746e+000	1.200000e+001
2.620221874967694e-002	-4.319523e+000	1.859039e+000	-9.295197e-001	7.680477e+000	1.200000e+001
2.649518749967695e-002	-4.294610e+000	1.783384e+000	-8.916919e-001	7.705390e+000	1.200000e+001
2.678815624967695e-002	-4.264725e+000	1.692632e+000	-8.463158e-001	7.735275e+000	1.200000e+001
2.708112499967695e-002	-4.230123e+000	1.587551e+000	-7.937755e-001	7.769877e+000	1.200000e+001
2.737409374967696e-002	-4.191095e+000	1.469031e+000	-7.345157e-001	7.808905e+000	1.200000e+001
2.766706249967696e-002	-4.147974e+000	1.338076e+000	-6.690382e-001	7.852026e+000	1.200000e+001
2.796003124967697e-002	-4.101125e+000	1.195794e+000	-5.978971e-001	7.898875e+000	1.200000e+001
2.815534374967697e-002	-4.068015e+000	1.095238e+000	-5.476189e-001	7.931985e+000	1.200000e+001
2.835065624967697e-002	-4.033548e+000	9.905592e-001	-4.952796e-001	7.966452e+000	1.200000e+001
2.844831249967697e-002	-4.015846e+000	9.367965e-001	-4.683983e-001	7.984154e+000	1.200000e+001
2.854596874967698e-002	-3.997854e+000	8.821523e-001	-4.410761e-001	8.002146e+000	1.200000e+001
2.864362499967698e-002	-3.979589e+000	8.266777e-001	-4.133389e-001	8.020411e+000	1.200000e+001
2.874128124967698e-002	-3.961068e+000	7.704251e-001	-3.852126e-001	8.038932e+000	1.200000e+001
2.883893749967698e-002	-3.942308e+000	7.134475e-001	-3.567237e-001	8.057692e+000	1.200000e+001
2.893659374967698e-002	-3.923328e+000	6.557983e-001	-3.278992e-001	8.076672e+000	1.200000e+001
2.913190624967698e-002	-3.884776e+000	5.387032e-001	-2.693516e-001	8.115224e+000	1.200000e+001
2.952253124967699e-002	-3.805819e+000	2.988787e-001	-1.494393e-001	8.194180e+000	1.200000e+001
2.962018749967699e-002	-3.785734e+000	2.380773e-001	-1.190387e-001	8.214231e+000	1.199997e+001
2.971784374967699e-002	-3.763325e+000	1.770519e-001	-8.852597e-002	8.235479e+000	1.199880e+001
2.981549999967699e-002	-3.665539e+000	1.158599e-001	-5.792993e-002	8.294400e+000	1.195994e+001
2.991315624967699e-002	-2.465402e+000	5.455877e-002	-2.727938e-002	8.903549e+000	1.136895e+001
3.001081249967700e-002	3.997755e-001	-6.793681e-003	3.396841e-003	1.034110e+001	9.941320e+000
3.010846874967700e-002	2.900907e+000	-6.813974e-002	3.406987e-002	1.159057e+001	8.689660e+000
3.020612499967700e-002	3.691584e+000	-1.294217e-001	6.471083e-002	1.198143e+001	8.289843e+000
3.030378124967700e-002	3.737701e+000	-1.905818e-001	9.529089e-002	1.199946e+001	8.261756e+000
3.040143749967700e-002	3.748804e+000	-2.515625e-001	1.257813e-001	1.199998e+001	8.251181e+000
3.049909374967700e-002	3.758833e+000	-3.123065e-001	1.561533e-001	1.200000e+001	8.241167e+000
3.069440624967701e-002	3.778855e+000	-4.339399e-001	2.169699e-001	1.200000e+001	8.221145e+000
3.088971874967701e-002	3.798428e+000	-5.528514e-001	2.764257e-001	1.200000e+001	8.201572e+000
3.108503124967701e-002	3.817554e+000	-6.690411e-001	3.345205e-001	1.200000e+001	8.182446e+000
3.128034374967701e-002	3.836232e+000	-7.825089e-001	3.912545e-001	1.200000e+001	8.163768e+000
3.147565624967701e-002	3.854462e+000	-8.932549e-001	4.466274e-001	1.200000e+001	8.145538e+000
3.167096874967702e-002	3.872244e+000	-1.001279e+000	5.006395e-001	1.200000e+001	8.127756e+000
3.186628124967702e-002	3.889579e+000	-1.106581e+000	5.532907e-001	1.200000e+001	8.110421e+000
3.206159374967702e-002	3.906054e+000	-1.206658e+000	6.033289e-001	1.200000e+001	8.093946e+000
3.225690624967702e-002	3.921781e+000	-1.302193e+000	6.510963e-001	1.200000e+001	8.078219e+000
3.235456249967703e-002	3.929344e+000	-1.348144e+000	6.740720e-001	1.200000e+001	8.070656e+000
3.245221874967703e-002	3.936701e+000	-1.392826e+000	6.964132e-001	1.200000e+001	8.063299e+000
3.254987499967703e-002	3.943840e+000	-1.436198e+000	7.180990e-001	1.200000e+001	8.056160e+000
3.264753124967703e-002	3.950758e+000	-1.478218e+000	7.391089e-001	1.200000e+001	8.049242e+000
3.274518749967703e-002	3.957446e+000	-1.518846e+000	7.594232e-001	1.200000e+001	8.042554e+000
3.284284374967703e-002	3.963900e+000	-1.558046e+000	7.790228e-001	1.200000e+001	8.036100e+000
3.294049999967703e-002	3.970111e+000	-1.595778e+000	7.978891e-001	1.200000e+001	8.029889e+000
3.303815624967704e-002	3.976075e+000	-1.632009e+000	8.160046e-001	1.200000e+001	8.023925e+000
3.313581249967704e-002	3.981787e+000	-1.666704e+000	8.333520e-001	1.200000e+001	8.018213e+000
3.323346874967704e-002	3.987241e+000	-1.699830e+000	8.499151e-001	1.200000e+001	8.012759e+000
3.333112499967704e-002	3.992431e+000	-1.731357e+000	8.656783e-001	1.200000e+001	8.007569e+000
3.342878124967704e-002	3.997353e+000	-1.761253e+000	8.806267e-001	1.200000e+001	8.002647e+000
3.352643749967704e-002	4.002001e+000	-1.789493e+000	8.947464e-001	1.200000e+001	7.997999e+000
